
T2E7C 000:275 SEGGER J-Link V5.02a Log File (0000ms, 0260ms total)
T2E7C 000:275 DLL Compiled: Sep  4 2015 18:49:27 (0000ms, 0260ms total)
T2E7C 000:275 Logging started @ 2016-02-29 22:48 (0000ms, 0260ms total)
T2E7C 000:275 JLINK_SetWarnOutHandler(...) (0000ms, 0260ms total)
T2E7C 000:275 JLINK_OpenEx(...)
Firmware: J-Link ARM V8 compiled Nov 28 2014 13:44:46
Hardware: V8.00
S/N: 99991999
Feature(s): RDI,FlashDL,FlashBP,JFlash,GDBFULL  returns O.K. (0259ms, 0519ms total)
T2E7C 000:534 JLINK_SetErrorOutHandler(...) (0000ms, 0519ms total)
T2E7C 000:534 JLINK_ExecCommand("ProjectFile = "C:\Users\Panoply\Documents\bot\Software\Balancing Software\Master\Projects\MDK-ARM\JLinkSettings.ini"", ...)Device "UNSPECIFIED" selected.  returns 0x00 (0005ms, 0524ms total)
T2E7C 000:542 JLINK_ExecCommand("Device = STM32F407VGTx", ...)Device "UNSPECIFIED" selected.  returns 0x00 (0005ms, 0529ms total)
T2E7C 000:547 JLINK_ExecCommand("DisableConnectionTimeout", ...)  returns 0x01 (0000ms, 0529ms total)
T2E7C 000:547 JLINK_GetHardwareVersion()  returns 0x13880 (0000ms, 0529ms total)
T2E7C 000:547 JLINK_GetDLLVersion()  returns 50201 (0000ms, 0529ms total)
T2E7C 000:547 JLINK_GetFirmwareString(...) (0000ms, 0529ms total)
T2E7C 000:555 JLINK_GetDLLVersion()  returns 50201 (0000ms, 0529ms total)
T2E7C 000:555 JLINK_GetCompileDateTime() (0000ms, 0529ms total)
T2E7C 000:558 JLINK_GetFirmwareString(...) (0000ms, 0529ms total)
T2E7C 000:564 JLINK_GetHardwareVersion()  returns 0x13880 (0000ms, 0529ms total)
T2E7C 000:575 JLINK_TIF_Select(JLINKARM_TIF_JTAG)  returns 0x00 (0002ms, 0531ms total)
T2E7C 000:577 JLINK_SetSpeed(50000) (0000ms, 0531ms total)
T2E7C 000:577 JLINK_GetIdData(...) >0x2F8 JTAG>TotalIRLen = 9, IRPrint = 0x0011 >0x30 JTAG> >0x210 JTAG> >0x70 JTAG> >0x40 JTAG> >0x40 JTAG> >0x40 JTAG> >0x50 JTAG> >0x80 JTAG> >0x40 JTAG> >0x30 JTAG> >0x40 JTAG> >0x40 JTAG> >0x30 JTAG> >0x40 JTAG> >0x50 JTAG>Found Cortex-M4 r0p1, Little endian. -- CPU_ReadMem(4 bytes @ 0xE000EDF0) -- CPU_ReadMem(4 bytes @ 0xE0002000)FPUnit: 6 code (BP) slots and 2 literal slots -- CPU_ReadMem(4 bytes @ 0xE000EDFC) -- CPU_ReadMem(4 bytes @ 0xE0001000)
 -- CPU_WriteMem(4 bytes @ 0xE0001000) -- CPU_ReadMem(4 bytes @ 0xE000ED88) -- CPU_WriteMem(4 bytes @ 0xE000ED88) -- CPU_ReadMem(4 bytes @ 0xE000ED88) -- CPU_WriteMem(4 bytes @ 0xE000ED88)CoreSight components:ROMTbl 0 @ E00FF000 -- CPU_ReadMem(16 bytes @ 0xE00FF000) -- CPU_ReadMem(16 bytes @ 0xE000EFF0) -- CPU_ReadMem(16 bytes @ 0xE000EFE0)ROMTbl 0 [0]: FFF0F000, CID: B105E00D, PID: 000BB00C SCS -- CPU_ReadMem(16 bytes @ 0xE0001FF0) -- CPU_ReadMem(16 bytes @ 0xE0001FE0)
ROMTbl 0 [1]: FFF02000, CID: B105E00D, PID: 003BB002 DWT -- CPU_ReadMem(16 bytes @ 0xE0002FF0) -- CPU_ReadMem(16 bytes @ 0xE0002FE0)ROMTbl 0 [2]: FFF03000, CID: B105E00D, PID: 002BB003 FPB -- CPU_ReadMem(16 bytes @ 0xE0000FF0) -- CPU_ReadMem(16 bytes @ 0xE0000FE0)ROMTbl 0 [3]: FFF01000, CID: B105E00D, PID: 003BB001 ITM -- CPU_ReadMem(16 bytes @ 0xE00FF010) -- CPU_ReadMem(16 bytes @ 0xE0040FF0) -- CPU_ReadMem(16 bytes @ 0xE0040FE0)ROMTbl 0 [4]: FFF41000, CID: B105900D, PID: 000BB9A1 TPIU
 -- CPU_ReadMem(16 bytes @ 0xE0041FF0) -- CPU_ReadMem(16 bytes @ 0xE0041FE0)ROMTbl 0 [5]: FFF42000, CID: B105900D, PID: 000BB925 ETM ScanLen=9 NumDevices=2 aId[0]=0x4BA00477 aIrRead[0]=0 aScanLen[0]=0 aScanRead[0]=0 (0058ms, 0589ms total)
T2E7C 000:635 JLINK_JTAG_GetDeviceID(DeviceIndex = 0)  returns 0x4BA00477 (0000ms, 0589ms total)
T2E7C 000:635 JLINK_JTAG_GetDeviceInfo(DeviceIndex = 0)  returns 0x00 (0000ms, 0589ms total)
T2E7C 000:635 JLINK_JTAG_GetDeviceID(DeviceIndex = 1)  returns 0x6413041 (0000ms, 0589ms total)
T2E7C 000:635 JLINK_JTAG_GetDeviceInfo(DeviceIndex = 1)  returns 0x00 (0000ms, 0589ms total)
T2E7C 000:635 JLINK_GetDLLVersion()  returns 50201 (0000ms, 0589ms total)
T2E7C 000:635 JLINK_CORE_GetFound()  returns 0xE0000FF (0000ms, 0589ms total)
T2E7C 000:635 JLINK_GetDebugInfo(0x100) -- Value=0xE00FF003  returns 0x00 (0000ms, 0589ms total)
T2E7C 000:637 JLINK_ReadMem (0xE00FF000, 0x0020 Bytes, ...) -- CPU is running -- CPU_ReadMem(32 bytes @ 0xE00FF000) - Data: 03 F0 F0 FF 03 20 F0 FF 03 30 F0 FF 03 10 F0 FF ...  returns 0x00 (0001ms, 0590ms total)
T2E7C 000:638 JLINK_ReadMem (0xE000EFF0, 0x0010 Bytes, ...) -- CPU is running -- CPU_ReadMem(16 bytes @ 0xE000EFF0) - Data: 0D 00 00 00 E0 00 00 00 05 00 00 00 B1 00 00 00  returns 0x00 (0001ms, 0591ms total)
T2E7C 000:639 JLINK_ReadMem (0xE000EFD0, 0x0020 Bytes, ...) -- CPU is running -- CPU_ReadMem(32 bytes @ 0xE000EFD0) - Data: 04 00 00 00 00 00 00 00 00 00 00 00 00 00 00 00 ...  returns 0x00 (0001ms, 0592ms total)
T2E7C 000:640 JLINK_ReadMem (0xE0001FF0, 0x0010 Bytes, ...) -- CPU is running -- CPU_ReadMem(16 bytes @ 0xE0001FF0) - Data: 0D 00 00 00 E0 00 00 00 05 00 00 00 B1 00 00 00  returns 0x00 (0000ms, 0592ms total)
T2E7C 000:640 JLINK_ReadMem (0xE0001FD0, 0x0020 Bytes, ...) -- CPU is running -- CPU_ReadMem(32 bytes @ 0xE0001FD0) - Data: 04 00 00 00 00 00 00 00 00 00 00 00 00 00 00 00 ...  returns 0x00 (0001ms, 0593ms total)
T2E7C 000:641 JLINK_ReadMem (0xE0002FF0, 0x0010 Bytes, ...) -- CPU is running -- CPU_ReadMem(16 bytes @ 0xE0002FF0) - Data: 0D 00 00 00 E0 00 00 00 05 00 00 00 B1 00 00 00  returns 0x00 (0000ms, 0593ms total)
T2E7C 000:641 JLINK_ReadMem (0xE0002FD0, 0x0020 Bytes, ...) -- CPU is running -- CPU_ReadMem(32 bytes @ 0xE0002FD0) - Data: 04 00 00 00 00 00 00 00 00 00 00 00 00 00 00 00 ...  returns 0x00 (0001ms, 0594ms total)
T2E7C 000:642 JLINK_ReadMem (0xE0000FF0, 0x0010 Bytes, ...) -- CPU is running -- CPU_ReadMem(16 bytes @ 0xE0000FF0) - Data: 0D 00 00 00 E0 00 00 00 05 00 00 00 B1 00 00 00  returns 0x00 (0001ms, 0595ms total)
T2E7C 000:643 JLINK_ReadMem (0xE0000FD0, 0x0020 Bytes, ...) -- CPU is running -- CPU_ReadMem(32 bytes @ 0xE0000FD0) - Data: 04 00 00 00 00 00 00 00 00 00 00 00 00 00 00 00 ...  returns 0x00 (0001ms, 0596ms total)
T2E7C 000:644 JLINK_ReadMem (0xE0040FF0, 0x0010 Bytes, ...) -- CPU is running -- CPU_ReadMem(16 bytes @ 0xE0040FF0) - Data: 0D 00 00 00 90 00 00 00 05 00 00 00 B1 00 00 00  returns 0x00 (0000ms, 0596ms total)
T2E7C 000:644 JLINK_ReadMem (0xE0040FD0, 0x0020 Bytes, ...) -- CPU is running -- CPU_ReadMem(32 bytes @ 0xE0040FD0) - Data: 04 00 00 00 00 00 00 00 00 00 00 00 00 00 00 00 ...  returns 0x00 (0001ms, 0597ms total)
T2E7C 000:645 JLINK_ReadMem (0xE0041FF0, 0x0010 Bytes, ...) -- CPU is running -- CPU_ReadMem(16 bytes @ 0xE0041FF0) - Data: 0D 00 00 00 90 00 00 00 05 00 00 00 B1 00 00 00  returns 0x00 (0000ms, 0597ms total)
T2E7C 000:645 JLINK_ReadMem (0xE0041FD0, 0x0020 Bytes, ...) -- CPU is running -- CPU_ReadMem(32 bytes @ 0xE0041FD0) - Data: 04 00 00 00 00 00 00 00 00 00 00 00 00 00 00 00 ...  returns 0x00 (0001ms, 0598ms total)
T2E7C 000:646 JLINK_ReadMemU32(0xE000EF40, 0x0001 Items, ...) -- CPU is running -- CPU_ReadMem(4 bytes @ 0xE000EF40) - Data: 21 00 11 10  returns 0x01 (0001ms, 0599ms total)
T2E7C 000:647 JLINK_ReadMemU32(0xE000EF44, 0x0001 Items, ...) -- CPU is running -- CPU_ReadMem(4 bytes @ 0xE000EF44) - Data: 11 00 00 11  returns 0x01 (0001ms, 0600ms total)
T2E7C 000:648 JLINK_ReadMemU32(0xE000ED00, 0x0001 Items, ...) -- CPU is running -- CPU_ReadMem(4 bytes @ 0xE000ED00) - Data: 41 C2 0F 41  returns 0x01 (0000ms, 0600ms total)
T2E7C 000:648 JLINK_SetResetType(JLINKARM_RESET_TYPE_NORMAL)  returns JLINKARM_RESET_TYPE_NORMAL (0000ms, 0600ms total)
T2E7C 000:648 JLINK_Reset() -- CPU is running -- CPU_WriteMem(4 bytes @ 0xE000EDF0) -- CPU is running -- CPU_WriteMem(4 bytes @ 0xE000EDFC) -- CPU is running -- CPU_WriteMem(4 bytes @ 0xE000ED0C) -- CPU is running -- CPU_ReadMem(4 bytes @ 0xE000EDF0) -- CPU is running -- CPU_ReadMem(4 bytes @ 0xE000EDF0) -- CPU is running -- CPU_WriteMem(4 bytes @ 0xE000EDF0) -- CPU is running -- CPU_WriteMem(4 bytes @ 0xE000EDFC) -- CPU is running -- CPU_ReadMem(4 bytes @ 0xE000EDF0) >0x80 JTAG> >0x40 JTAG> >0x30 JTAG>
 >0x40 JTAG> >0x50 JTAG> >0x40 JTAG> -- CPU_WriteMem(4 bytes @ 0xE000EDFC) -- CPU_WriteMem(4 bytes @ 0xE0001028) -- CPU_WriteMem(4 bytes @ 0xE0001038) -- CPU_WriteMem(4 bytes @ 0xE0001048) -- CPU_WriteMem(4 bytes @ 0xE0001058) -- CPU_WriteMem(4 bytes @ 0xE0002000) -- CPU_ReadMem(4 bytes @ 0xE000EDFC) -- CPU_ReadMem(4 bytes @ 0xE0001000) (0026ms, 0626ms total)
T2E7C 000:674 JLINK_Halt()  returns 0x00 (0000ms, 0626ms total)
T2E7C 000:674 JLINK_IsHalted()  returns TRUE (0000ms, 0626ms total)
T2E7C 000:674 JLINK_ReadMemU32(0xE000EDF0, 0x0001 Items, ...) -- CPU_ReadMem(4 bytes @ 0xE000EDF0) - Data: 03 00 03 00  returns 0x01 (0000ms, 0626ms total)
T2E7C 000:674 JLINK_WriteU32(0xE000EDF0, 0xA05F0003) -- CPU_WriteMem(4 bytes @ 0xE000EDF0)  returns 0x00 (0001ms, 0627ms total)
T2E7C 000:675 JLINK_WriteU32(0xE000EDFC, 0x01000000) -- CPU_WriteMem(4 bytes @ 0xE000EDFC)  returns 0x00 (0001ms, 0628ms total)
T2E7C 000:687 JLINK_GetHWStatus(...)  returns 0x00 (0001ms, 0629ms total)
T2E7C 000:696 JLINK_GetNumBPUnits(Type = 0xFFFFFF00)  returns 0x06 (0000ms, 0629ms total)
T2E7C 000:696 JLINK_GetNumBPUnits(Type = 0xF0)  returns 0x2000 (0000ms, 0629ms total)
T2E7C 000:696 JLINK_GetNumWPUnits()  returns 0x04 (0000ms, 0629ms total)
T2E7C 000:703 JLINK_GetSpeed()  returns 0x2EE0 (0000ms, 0629ms total)
T2E7C 000:708 JLINK_ReadMemU32(0xE000E004, 0x0001 Items, ...) -- CPU_ReadMem(4 bytes @ 0xE000E004) - Data: 02 00 00 00  returns 0x01 (0001ms, 0630ms total)
T2E7C 000:709 JLINK_ReadMemU32(0xE000E004, 0x0001 Items, ...) -- CPU_ReadMem(4 bytes @ 0xE000E004) - Data: 02 00 00 00  returns 0x01 (0000ms, 0630ms total)
T2E7C 000:709 JLINK_WriteMem(0xE0001000, 0x001C Bytes, ...) - Data: 01 00 00 00 00 00 00 00 00 00 00 00 00 00 00 00 ... -- CPU_WriteMem(28 bytes @ 0xE0001000)  returns 0x1C (0001ms, 0631ms total)
T2E7C 000:710 JLINK_ReadMem (0xE0001000, 0x001C Bytes, ...) -- CPU_ReadMem(28 bytes @ 0xE0001000) - Data: 01 00 00 40 00 00 00 00 00 00 00 00 00 00 00 00 ...  returns 0x00 (0001ms, 0632ms total)
T2E7C 000:711 JLINK_Halt()  returns 0x00 (0000ms, 0632ms total)
T2E7C 000:711 JLINK_IsHalted()  returns TRUE (0000ms, 0632ms total)
T2E7C 000:715 JLINK_WriteMem(0x20000000, 0x0180 Bytes, ...) - Data: 00 BE 0A E0 0D 78 2D 06 68 40 08 24 40 00 00 D3 ... -- CPU_WriteMem(384 bytes @ 0x20000000)  returns 0x180 (0003ms, 0635ms total)
T2E7C 000:718 JLINK_WriteReg(R0, 0x08000000)  returns 0x00 (0000ms, 0635ms total)
T2E7C 000:718 JLINK_WriteReg(R1, 0x00B71B00)  returns 0x00 (0000ms, 0635ms total)
T2E7C 000:718 JLINK_WriteReg(R2, 0x00000001)  returns 0x00 (0000ms, 0635ms total)
T2E7C 000:718 JLINK_WriteReg(R3, 0x00000000)  returns 0x00 (0000ms, 0635ms total)
T2E7C 000:718 JLINK_WriteReg(R4, 0x00000000)  returns 0x00 (0000ms, 0635ms total)
T2E7C 000:718 JLINK_WriteReg(R5, 0x00000000)  returns 0x00 (0000ms, 0635ms total)
T2E7C 000:718 JLINK_WriteReg(R6, 0x00000000)  returns 0x00 (0000ms, 0635ms total)
T2E7C 000:718 JLINK_WriteReg(R7, 0x00000000)  returns 0x00 (0000ms, 0635ms total)
T2E7C 000:718 JLINK_WriteReg(R8, 0x00000000)  returns 0x00 (0000ms, 0635ms total)
T2E7C 000:718 JLINK_WriteReg(R9, 0x2000017C)  returns 0x00 (0000ms, 0635ms total)
T2E7C 000:718 JLINK_WriteReg(R10, 0x00000000)  returns 0x00 (0000ms, 0635ms total)
T2E7C 000:718 JLINK_WriteReg(R11, 0x00000000)  returns 0x00 (0000ms, 0635ms total)
T2E7C 000:718 JLINK_WriteReg(R12, 0x00000000)  returns 0x00 (0000ms, 0635ms total)
T2E7C 000:718 JLINK_WriteReg(R13 (SP), 0x20001000)  returns 0x00 (0000ms, 0635ms total)
T2E7C 000:718 JLINK_WriteReg(R14, 0x20000001)  returns 0x00 (0000ms, 0635ms total)
T2E7C 000:718 JLINK_WriteReg(R15 (PC), 0x20000054)  returns 0x00 (0000ms, 0635ms total)
T2E7C 000:718 JLINK_WriteReg(XPSR, 0x01000000)  returns 0x00 (0000ms, 0635ms total)
T2E7C 000:718 JLINK_WriteReg(MSP, 0x20001000)  returns 0x00 (0000ms, 0635ms total)
T2E7C 000:718 JLINK_WriteReg(PSP, 0x20001000)  returns 0x00 (0000ms, 0635ms total)
T2E7C 000:718 JLINK_WriteReg(CFBP, 0x00000000)  returns 0x00 (0000ms, 0635ms total)
T2E7C 000:718 JLINK_SetBPEx(Addr = 0x20000000, Type = 0xFFFFFFF2) -- CPU_ReadMem(4 bytes @ 0x20000000) -- CPU_WriteMem(4 bytes @ 0x20000000) -- CPU_ReadMem(4 bytes @ 0x20000000) -- CPU_WriteMem(4 bytes @ 0x20000000) -- CPU_ReadMem(2 bytes @ 0x20000000)  returns 0x00000001 (0003ms, 0638ms total)
T2E7C 000:721 JLINK_Go() -- CPU_WriteMem(2 bytes @ 0x20000000) -- CPU_ReadMem(4 bytes @ 0xE0001000) -- CPU_WriteMem(4 bytes @ 0xE0002008) -- CPU_WriteMem(4 bytes @ 0xE000200C) -- CPU_WriteMem(4 bytes @ 0xE0002010) -- CPU_WriteMem(4 bytes @ 0xE0002014) -- CPU_WriteMem(4 bytes @ 0xE0002018) -- CPU_WriteMem(4 bytes @ 0xE000201C) -- CPU_WriteMem(4 bytes @ 0xE0001004) (0004ms, 0642ms total)
T2E7C 000:725 JLINK_IsHalted() -- CPU_ReadMem(2 bytes @ 0x20000000)  returns TRUE (0003ms, 0645ms total)
T2E7C 000:728 JLINK_ReadReg(R15 (PC))  returns 0x20000000 (0000ms, 0642ms total)
T2E7C 000:728 JLINK_ClrBPEx(BPHandle = 0x00000001)  returns 0x00 (0000ms, 0642ms total)
T2E7C 000:728 JLINK_ReadReg(R0)  returns 0x00000000 (0000ms, 0642ms total)
T2E7C 000:729 JLINK_WriteReg(R0, 0x08000000)  returns 0x00 (0000ms, 0642ms total)
T2E7C 000:729 JLINK_WriteReg(R1, 0x00004000)  returns 0x00 (0000ms, 0642ms total)
T2E7C 000:729 JLINK_WriteReg(R2, 0x000000FF)  returns 0x00 (0000ms, 0642ms total)
T2E7C 000:729 JLINK_WriteReg(R3, 0x00000000)  returns 0x00 (0000ms, 0642ms total)
T2E7C 000:729 JLINK_WriteReg(R4, 0x00000000)  returns 0x00 (0000ms, 0642ms total)
T2E7C 000:729 JLINK_WriteReg(R5, 0x00000000)  returns 0x00 (0000ms, 0642ms total)
T2E7C 000:729 JLINK_WriteReg(R6, 0x00000000)  returns 0x00 (0000ms, 0642ms total)
T2E7C 000:729 JLINK_WriteReg(R7, 0x00000000)  returns 0x00 (0000ms, 0642ms total)
T2E7C 000:729 JLINK_WriteReg(R8, 0x00000000)  returns 0x00 (0000ms, 0642ms total)
T2E7C 000:729 JLINK_WriteReg(R9, 0x2000017C)  returns 0x00 (0000ms, 0642ms total)
T2E7C 000:729 JLINK_WriteReg(R10, 0x00000000)  returns 0x00 (0000ms, 0642ms total)
T2E7C 000:729 JLINK_WriteReg(R11, 0x00000000)  returns 0x00 (0000ms, 0642ms total)
T2E7C 000:729 JLINK_WriteReg(R12, 0x00000000)  returns 0x00 (0000ms, 0642ms total)
T2E7C 000:729 JLINK_WriteReg(R13 (SP), 0x20001000)  returns 0x00 (0000ms, 0642ms total)
T2E7C 000:729 JLINK_WriteReg(R14, 0x20000001)  returns 0x00 (0000ms, 0642ms total)
T2E7C 000:729 JLINK_WriteReg(R15 (PC), 0x20000020)  returns 0x00 (0000ms, 0642ms total)
T2E7C 000:729 JLINK_WriteReg(XPSR, 0x01000000)  returns 0x00 (0000ms, 0642ms total)
T2E7C 000:729 JLINK_WriteReg(MSP, 0x20001000)  returns 0x00 (0000ms, 0642ms total)
T2E7C 000:729 JLINK_WriteReg(PSP, 0x20001000)  returns 0x00 (0000ms, 0642ms total)
T2E7C 000:729 JLINK_WriteReg(CFBP, 0x00000000)  returns 0x00 (0000ms, 0642ms total)
T2E7C 000:729 JLINK_SetBPEx(Addr = 0x20000000, Type = 0xFFFFFFF2)  returns 0x00000002 (0000ms, 0642ms total)
T2E7C 000:729 JLINK_Go() -- CPU_ReadMem(4 bytes @ 0xE0001000) (0002ms, 0644ms total)
T2E7C 000:731 JLINK_IsHalted()  returns FALSE (0000ms, 0644ms total)
T2E7C 000:799 JLINK_IsHalted() -- CPU_ReadMem(2 bytes @ 0x20000000)  returns TRUE (0003ms, 0647ms total)
T2E7C 000:802 JLINK_ReadReg(R15 (PC))  returns 0x20000000 (0000ms, 0644ms total)
T2E7C 000:802 JLINK_ClrBPEx(BPHandle = 0x00000002)  returns 0x00 (0000ms, 0644ms total)
T2E7C 000:802 JLINK_ReadReg(R0)  returns 0x00000000 (0000ms, 0644ms total)
T2E7C 000:802 JLINK_WriteReg(R0, 0x08004000)  returns 0x00 (0000ms, 0644ms total)
T2E7C 000:802 JLINK_WriteReg(R1, 0x00004000)  returns 0x00 (0000ms, 0644ms total)
T2E7C 000:802 JLINK_WriteReg(R2, 0x000000FF)  returns 0x00 (0000ms, 0644ms total)
T2E7C 000:802 JLINK_WriteReg(R3, 0x00000000)  returns 0x00 (0000ms, 0644ms total)
T2E7C 000:802 JLINK_WriteReg(R4, 0x00000000)  returns 0x00 (0000ms, 0644ms total)
T2E7C 000:802 JLINK_WriteReg(R5, 0x00000000)  returns 0x00 (0000ms, 0644ms total)
T2E7C 000:802 JLINK_WriteReg(R6, 0x00000000)  returns 0x00 (0000ms, 0644ms total)
T2E7C 000:802 JLINK_WriteReg(R7, 0x00000000)  returns 0x00 (0000ms, 0644ms total)
T2E7C 000:802 JLINK_WriteReg(R8, 0x00000000)  returns 0x00 (0000ms, 0644ms total)
T2E7C 000:802 JLINK_WriteReg(R9, 0x2000017C)  returns 0x00 (0000ms, 0644ms total)
T2E7C 000:802 JLINK_WriteReg(R10, 0x00000000)  returns 0x00 (0000ms, 0644ms total)
T2E7C 000:802 JLINK_WriteReg(R11, 0x00000000)  returns 0x00 (0000ms, 0644ms total)
T2E7C 000:802 JLINK_WriteReg(R12, 0x00000000)  returns 0x00 (0000ms, 0644ms total)
T2E7C 000:802 JLINK_WriteReg(R13 (SP), 0x20001000)  returns 0x00 (0000ms, 0644ms total)
T2E7C 000:802 JLINK_WriteReg(R14, 0x20000001)  returns 0x00 (0000ms, 0644ms total)
T2E7C 000:802 JLINK_WriteReg(R15 (PC), 0x20000020)  returns 0x00 (0000ms, 0644ms total)
T2E7C 000:802 JLINK_WriteReg(XPSR, 0x01000000)  returns 0x00 (0000ms, 0644ms total)
T2E7C 000:802 JLINK_WriteReg(MSP, 0x20001000)  returns 0x00 (0000ms, 0644ms total)
T2E7C 000:802 JLINK_WriteReg(PSP, 0x20001000)  returns 0x00 (0000ms, 0644ms total)
T2E7C 000:802 JLINK_WriteReg(CFBP, 0x00000000)  returns 0x00 (0000ms, 0644ms total)
T2E7C 000:802 JLINK_SetBPEx(Addr = 0x20000000, Type = 0xFFFFFFF2)  returns 0x00000003 (0000ms, 0644ms total)
T2E7C 000:802 JLINK_Go() -- CPU_ReadMem(4 bytes @ 0xE0001000) (0002ms, 0646ms total)
T2E7C 000:804 JLINK_IsHalted()  returns FALSE (0001ms, 0647ms total)
T2E7C 000:832 JLINK_IsHalted() -- CPU_ReadMem(2 bytes @ 0x20000000)  returns TRUE (0003ms, 0649ms total)
T2E7C 000:835 JLINK_ReadReg(R15 (PC))  returns 0x20000000 (0000ms, 0646ms total)
T2E7C 000:835 JLINK_ClrBPEx(BPHandle = 0x00000003)  returns 0x00 (0000ms, 0646ms total)
T2E7C 000:835 JLINK_ReadReg(R0)  returns 0x00000000 (0000ms, 0646ms total)
T2E7C 000:835 JLINK_WriteReg(R0, 0x08008000)  returns 0x00 (0000ms, 0646ms total)
T2E7C 000:835 JLINK_WriteReg(R1, 0x00004000)  returns 0x00 (0000ms, 0646ms total)
T2E7C 000:835 JLINK_WriteReg(R2, 0x000000FF)  returns 0x00 (0000ms, 0646ms total)
T2E7C 000:835 JLINK_WriteReg(R3, 0x00000000)  returns 0x00 (0000ms, 0646ms total)
T2E7C 000:835 JLINK_WriteReg(R4, 0x00000000)  returns 0x00 (0000ms, 0646ms total)
T2E7C 000:835 JLINK_WriteReg(R5, 0x00000000)  returns 0x00 (0000ms, 0646ms total)
T2E7C 000:835 JLINK_WriteReg(R6, 0x00000000)  returns 0x00 (0000ms, 0646ms total)
T2E7C 000:835 JLINK_WriteReg(R7, 0x00000000)  returns 0x00 (0000ms, 0646ms total)
T2E7C 000:835 JLINK_WriteReg(R8, 0x00000000)  returns 0x00 (0000ms, 0646ms total)
T2E7C 000:835 JLINK_WriteReg(R9, 0x2000017C)  returns 0x00 (0000ms, 0646ms total)
T2E7C 000:835 JLINK_WriteReg(R10, 0x00000000)  returns 0x00 (0000ms, 0646ms total)
T2E7C 000:835 JLINK_WriteReg(R11, 0x00000000)  returns 0x00 (0000ms, 0646ms total)
T2E7C 000:835 JLINK_WriteReg(R12, 0x00000000)  returns 0x00 (0000ms, 0646ms total)
T2E7C 000:835 JLINK_WriteReg(R13 (SP), 0x20001000)  returns 0x00 (0000ms, 0646ms total)
T2E7C 000:835 JLINK_WriteReg(R14, 0x20000001)  returns 0x00 (0000ms, 0646ms total)
T2E7C 000:835 JLINK_WriteReg(R15 (PC), 0x20000020)  returns 0x00 (0000ms, 0646ms total)
T2E7C 000:835 JLINK_WriteReg(XPSR, 0x01000000)  returns 0x00 (0000ms, 0646ms total)
T2E7C 000:835 JLINK_WriteReg(MSP, 0x20001000)  returns 0x00 (0000ms, 0646ms total)
T2E7C 000:835 JLINK_WriteReg(PSP, 0x20001000)  returns 0x00 (0000ms, 0646ms total)
T2E7C 000:835 JLINK_WriteReg(CFBP, 0x00000000)  returns 0x00 (0000ms, 0646ms total)
T2E7C 000:835 JLINK_SetBPEx(Addr = 0x20000000, Type = 0xFFFFFFF2)  returns 0x00000004 (0000ms, 0646ms total)
T2E7C 000:835 JLINK_Go() -- CPU_ReadMem(4 bytes @ 0xE0001000) (0002ms, 0648ms total)
T2E7C 000:837 JLINK_IsHalted()  returns FALSE (0000ms, 0648ms total)
T2E7C 000:840 JLINK_IsHalted()  returns FALSE (0000ms, 0648ms total)
T2E7C 000:841 JLINK_IsHalted()  returns FALSE (0001ms, 0649ms total)
T2E7C 000:844 JLINK_IsHalted()  returns FALSE (0000ms, 0648ms total)
T2E7C 000:846 JLINK_IsHalted()  returns FALSE (0000ms, 0648ms total)
T2E7C 000:848 JLINK_IsHalted()  returns FALSE (0000ms, 0648ms total)
T2E7C 000:849 JLINK_IsHalted()  returns FALSE (0001ms, 0649ms total)
T2E7C 000:851 JLINK_IsHalted() -- CPU_ReadMem(2 bytes @ 0x20000000)  returns TRUE (0003ms, 0651ms total)
T2E7C 000:854 JLINK_ReadReg(R15 (PC))  returns 0x20000000 (0000ms, 0648ms total)
T2E7C 000:854 JLINK_ClrBPEx(BPHandle = 0x00000004)  returns 0x00 (0000ms, 0648ms total)
T2E7C 000:854 JLINK_ReadReg(R0)  returns 0x00000000 (0000ms, 0648ms total)
T2E7C 000:854 JLINK_WriteReg(R0, 0x0800C000)  returns 0x00 (0000ms, 0648ms total)
T2E7C 000:854 JLINK_WriteReg(R1, 0x00004000)  returns 0x00 (0000ms, 0648ms total)
T2E7C 000:854 JLINK_WriteReg(R2, 0x000000FF)  returns 0x00 (0000ms, 0648ms total)
T2E7C 000:854 JLINK_WriteReg(R3, 0x00000000)  returns 0x00 (0000ms, 0648ms total)
T2E7C 000:854 JLINK_WriteReg(R4, 0x00000000)  returns 0x00 (0000ms, 0648ms total)
T2E7C 000:854 JLINK_WriteReg(R5, 0x00000000)  returns 0x00 (0000ms, 0648ms total)
T2E7C 000:854 JLINK_WriteReg(R6, 0x00000000)  returns 0x00 (0000ms, 0648ms total)
T2E7C 000:854 JLINK_WriteReg(R7, 0x00000000)  returns 0x00 (0000ms, 0648ms total)
T2E7C 000:855 JLINK_WriteReg(R8, 0x00000000)  returns 0x00 (0000ms, 0648ms total)
T2E7C 000:855 JLINK_WriteReg(R9, 0x2000017C)  returns 0x00 (0000ms, 0648ms total)
T2E7C 000:855 JLINK_WriteReg(R10, 0x00000000)  returns 0x00 (0000ms, 0648ms total)
T2E7C 000:855 JLINK_WriteReg(R11, 0x00000000)  returns 0x00 (0000ms, 0648ms total)
T2E7C 000:855 JLINK_WriteReg(R12, 0x00000000)  returns 0x00 (0000ms, 0648ms total)
T2E7C 000:855 JLINK_WriteReg(R13 (SP), 0x20001000)  returns 0x00 (0000ms, 0648ms total)
T2E7C 000:855 JLINK_WriteReg(R14, 0x20000001)  returns 0x00 (0000ms, 0648ms total)
T2E7C 000:855 JLINK_WriteReg(R15 (PC), 0x20000020)  returns 0x00 (0000ms, 0648ms total)
T2E7C 000:855 JLINK_WriteReg(XPSR, 0x01000000)  returns 0x00 (0000ms, 0648ms total)
T2E7C 000:855 JLINK_WriteReg(MSP, 0x20001000)  returns 0x00 (0000ms, 0648ms total)
T2E7C 000:855 JLINK_WriteReg(PSP, 0x20001000)  returns 0x00 (0000ms, 0648ms total)
T2E7C 000:855 JLINK_WriteReg(CFBP, 0x00000000)  returns 0x00 (0000ms, 0648ms total)
T2E7C 000:855 JLINK_SetBPEx(Addr = 0x20000000, Type = 0xFFFFFFF2)  returns 0x00000005 (0000ms, 0648ms total)
T2E7C 000:855 JLINK_Go() -- CPU_ReadMem(4 bytes @ 0xE0001000) (0001ms, 0649ms total)
T2E7C 000:856 JLINK_IsHalted()  returns FALSE (0000ms, 0649ms total)
T2E7C 000:858 JLINK_IsHalted()  returns FALSE (0000ms, 0649ms total)
T2E7C 000:860 JLINK_IsHalted()  returns FALSE (0000ms, 0649ms total)
T2E7C 000:861 JLINK_IsHalted()  returns FALSE (0000ms, 0649ms total)
T2E7C 000:864 JLINK_IsHalted()  returns FALSE (0000ms, 0649ms total)
T2E7C 000:867 JLINK_IsHalted()  returns FALSE (0000ms, 0649ms total)
T2E7C 000:868 JLINK_IsHalted()  returns FALSE (0000ms, 0649ms total)
T2E7C 000:870 JLINK_IsHalted()  returns FALSE (0000ms, 0649ms total)
T2E7C 000:871 JLINK_IsHalted() -- CPU_ReadMem(2 bytes @ 0x20000000)  returns TRUE (0003ms, 0652ms total)
T2E7C 000:874 JLINK_ReadReg(R15 (PC))  returns 0x20000000 (0000ms, 0649ms total)
T2E7C 000:874 JLINK_ClrBPEx(BPHandle = 0x00000005)  returns 0x00 (0000ms, 0649ms total)
T2E7C 000:874 JLINK_ReadReg(R0)  returns 0x00000000 (0000ms, 0649ms total)
T2E7C 000:874 JLINK_WriteReg(R0, 0x08010000)  returns 0x00 (0000ms, 0649ms total)
T2E7C 000:874 JLINK_WriteReg(R1, 0x00010000)  returns 0x00 (0000ms, 0649ms total)
T2E7C 000:874 JLINK_WriteReg(R2, 0x000000FF)  returns 0x00 (0000ms, 0649ms total)
T2E7C 000:874 JLINK_WriteReg(R3, 0x00000000)  returns 0x00 (0000ms, 0649ms total)
T2E7C 000:874 JLINK_WriteReg(R4, 0x00000000)  returns 0x00 (0000ms, 0649ms total)
T2E7C 000:874 JLINK_WriteReg(R5, 0x00000000)  returns 0x00 (0000ms, 0649ms total)
T2E7C 000:874 JLINK_WriteReg(R6, 0x00000000)  returns 0x00 (0000ms, 0649ms total)
T2E7C 000:874 JLINK_WriteReg(R7, 0x00000000)  returns 0x00 (0000ms, 0649ms total)
T2E7C 000:874 JLINK_WriteReg(R8, 0x00000000)  returns 0x00 (0000ms, 0649ms total)
T2E7C 000:874 JLINK_WriteReg(R9, 0x2000017C)  returns 0x00 (0000ms, 0649ms total)
T2E7C 000:874 JLINK_WriteReg(R10, 0x00000000)  returns 0x00 (0000ms, 0649ms total)
T2E7C 000:874 JLINK_WriteReg(R11, 0x00000000)  returns 0x00 (0000ms, 0649ms total)
T2E7C 000:874 JLINK_WriteReg(R12, 0x00000000)  returns 0x00 (0000ms, 0649ms total)
T2E7C 000:874 JLINK_WriteReg(R13 (SP), 0x20001000)  returns 0x00 (0000ms, 0649ms total)
T2E7C 000:874 JLINK_WriteReg(R14, 0x20000001)  returns 0x00 (0000ms, 0649ms total)
T2E7C 000:874 JLINK_WriteReg(R15 (PC), 0x20000020)  returns 0x00 (0000ms, 0649ms total)
T2E7C 000:874 JLINK_WriteReg(XPSR, 0x01000000)  returns 0x00 (0000ms, 0649ms total)
T2E7C 000:874 JLINK_WriteReg(MSP, 0x20001000)  returns 0x00 (0000ms, 0649ms total)
T2E7C 000:874 JLINK_WriteReg(PSP, 0x20001000)  returns 0x00 (0000ms, 0649ms total)
T2E7C 000:874 JLINK_WriteReg(CFBP, 0x00000000)  returns 0x00 (0000ms, 0649ms total)
T2E7C 000:874 JLINK_SetBPEx(Addr = 0x20000000, Type = 0xFFFFFFF2)  returns 0x00000006 (0000ms, 0649ms total)
T2E7C 000:874 JLINK_Go() -- CPU_ReadMem(4 bytes @ 0xE0001000) (0003ms, 0652ms total)
T2E7C 000:877 JLINK_IsHalted()  returns FALSE (0000ms, 0652ms total)
T2E7C 000:879 JLINK_IsHalted()  returns FALSE (0000ms, 0652ms total)
T2E7C 000:881 JLINK_IsHalted()  returns FALSE (0000ms, 0652ms total)
T2E7C 000:882 JLINK_IsHalted()  returns FALSE (0001ms, 0653ms total)
T2E7C 000:884 JLINK_IsHalted()  returns FALSE (0001ms, 0653ms total)
T2E7C 000:886 JLINK_IsHalted()  returns FALSE (0000ms, 0652ms total)
T2E7C 000:888 JLINK_IsHalted()  returns FALSE (0000ms, 0652ms total)
T2E7C 000:890 JLINK_IsHalted()  returns FALSE (0000ms, 0652ms total)
T2E7C 000:892 JLINK_IsHalted()  returns FALSE (0000ms, 0652ms total)
T2E7C 000:894 JLINK_IsHalted()  returns FALSE (0000ms, 0652ms total)
T2E7C 000:932 JLINK_IsHalted()  returns FALSE (0000ms, 0652ms total)
T2E7C 000:934 JLINK_IsHalted()  returns FALSE (0000ms, 0652ms total)
T2E7C 000:936 JLINK_IsHalted() -- CPU_ReadMem(2 bytes @ 0x20000000)  returns TRUE (0002ms, 0654ms total)
T2E7C 000:938 JLINK_ReadReg(R15 (PC))  returns 0x20000000 (0000ms, 0652ms total)
T2E7C 000:938 JLINK_ClrBPEx(BPHandle = 0x00000006)  returns 0x00 (0000ms, 0652ms total)
T2E7C 000:938 JLINK_ReadReg(R0)  returns 0x00000000 (0000ms, 0652ms total)
T2E7C 000:939 JLINK_WriteReg(R0, 0x00000001)  returns 0x00 (0000ms, 0652ms total)
T2E7C 000:939 JLINK_WriteReg(R1, 0x00010000)  returns 0x00 (0000ms, 0652ms total)
T2E7C 000:939 JLINK_WriteReg(R2, 0x000000FF)  returns 0x00 (0000ms, 0652ms total)
T2E7C 000:939 JLINK_WriteReg(R3, 0x00000000)  returns 0x00 (0000ms, 0652ms total)
T2E7C 000:939 JLINK_WriteReg(R4, 0x00000000)  returns 0x00 (0000ms, 0652ms total)
T2E7C 000:939 JLINK_WriteReg(R5, 0x00000000)  returns 0x00 (0000ms, 0652ms total)
T2E7C 000:939 JLINK_WriteReg(R6, 0x00000000)  returns 0x00 (0000ms, 0652ms total)
T2E7C 000:939 JLINK_WriteReg(R7, 0x00000000)  returns 0x00 (0000ms, 0652ms total)
T2E7C 000:939 JLINK_WriteReg(R8, 0x00000000)  returns 0x00 (0000ms, 0652ms total)
T2E7C 000:939 JLINK_WriteReg(R9, 0x2000017C)  returns 0x00 (0000ms, 0652ms total)
T2E7C 000:939 JLINK_WriteReg(R10, 0x00000000)  returns 0x00 (0000ms, 0652ms total)
T2E7C 000:939 JLINK_WriteReg(R11, 0x00000000)  returns 0x00 (0000ms, 0652ms total)
T2E7C 000:939 JLINK_WriteReg(R12, 0x00000000)  returns 0x00 (0000ms, 0652ms total)
T2E7C 000:939 JLINK_WriteReg(R13 (SP), 0x20001000)  returns 0x00 (0000ms, 0652ms total)
T2E7C 000:939 JLINK_WriteReg(R14, 0x20000001)  returns 0x00 (0000ms, 0652ms total)
T2E7C 000:939 JLINK_WriteReg(R15 (PC), 0x20000082)  returns 0x00 (0000ms, 0652ms total)
T2E7C 000:939 JLINK_WriteReg(XPSR, 0x01000000)  returns 0x00 (0000ms, 0652ms total)
T2E7C 000:939 JLINK_WriteReg(MSP, 0x20001000)  returns 0x00 (0000ms, 0652ms total)
T2E7C 000:939 JLINK_WriteReg(PSP, 0x20001000)  returns 0x00 (0000ms, 0652ms total)
T2E7C 000:939 JLINK_WriteReg(CFBP, 0x00000000)  returns 0x00 (0000ms, 0652ms total)
T2E7C 000:939 JLINK_SetBPEx(Addr = 0x20000000, Type = 0xFFFFFFF2)  returns 0x00000007 (0000ms, 0652ms total)
T2E7C 000:939 JLINK_Go() -- CPU_ReadMem(4 bytes @ 0xE0001000) (0002ms, 0654ms total)
T2E7C 000:941 JLINK_IsHalted() -- CPU_ReadMem(2 bytes @ 0x20000000)  returns TRUE (0003ms, 0657ms total)
T2E7C 000:944 JLINK_ReadReg(R15 (PC))  returns 0x20000000 (0000ms, 0654ms total)
T2E7C 000:944 JLINK_ClrBPEx(BPHandle = 0x00000007)  returns 0x00 (0000ms, 0654ms total)
T2E7C 000:944 JLINK_ReadReg(R0)  returns 0x00000000 (0000ms, 0654ms total)
T2E7C 001:000 JLINK_WriteMem(0x20000000, 0x0180 Bytes, ...) - Data: 00 BE 0A E0 0D 78 2D 06 68 40 08 24 40 00 00 D3 ... -- CPU_WriteMem(384 bytes @ 0x20000000)  returns 0x180 (0003ms, 0657ms total)
T2E7C 001:003 JLINK_WriteReg(R0, 0x08000000)  returns 0x00 (0000ms, 0657ms total)
T2E7C 001:003 JLINK_WriteReg(R1, 0x00B71B00)  returns 0x00 (0000ms, 0657ms total)
T2E7C 001:003 JLINK_WriteReg(R2, 0x00000002)  returns 0x00 (0000ms, 0657ms total)
T2E7C 001:003 JLINK_WriteReg(R3, 0x00000000)  returns 0x00 (0000ms, 0657ms total)
T2E7C 001:003 JLINK_WriteReg(R4, 0x00000000)  returns 0x00 (0000ms, 0657ms total)
T2E7C 001:003 JLINK_WriteReg(R5, 0x00000000)  returns 0x00 (0000ms, 0657ms total)
T2E7C 001:003 JLINK_WriteReg(R6, 0x00000000)  returns 0x00 (0000ms, 0657ms total)
T2E7C 001:003 JLINK_WriteReg(R7, 0x00000000)  returns 0x00 (0000ms, 0657ms total)
T2E7C 001:003 JLINK_WriteReg(R8, 0x00000000)  returns 0x00 (0000ms, 0657ms total)
T2E7C 001:003 JLINK_WriteReg(R9, 0x2000017C)  returns 0x00 (0000ms, 0657ms total)
T2E7C 001:003 JLINK_WriteReg(R10, 0x00000000)  returns 0x00 (0000ms, 0657ms total)
T2E7C 001:003 JLINK_WriteReg(R11, 0x00000000)  returns 0x00 (0000ms, 0657ms total)
T2E7C 001:003 JLINK_WriteReg(R12, 0x00000000)  returns 0x00 (0000ms, 0657ms total)
T2E7C 001:003 JLINK_WriteReg(R13 (SP), 0x20001000)  returns 0x00 (0000ms, 0657ms total)
T2E7C 001:003 JLINK_WriteReg(R14, 0x20000001)  returns 0x00 (0000ms, 0657ms total)
T2E7C 001:003 JLINK_WriteReg(R15 (PC), 0x20000054)  returns 0x00 (0000ms, 0657ms total)
T2E7C 001:003 JLINK_WriteReg(XPSR, 0x01000000)  returns 0x00 (0000ms, 0657ms total)
T2E7C 001:003 JLINK_WriteReg(MSP, 0x20001000)  returns 0x00 (0000ms, 0657ms total)
T2E7C 001:003 JLINK_WriteReg(PSP, 0x20001000)  returns 0x00 (0000ms, 0657ms total)
T2E7C 001:003 JLINK_WriteReg(CFBP, 0x00000000)  returns 0x00 (0000ms, 0657ms total)
T2E7C 001:003 JLINK_SetBPEx(Addr = 0x20000000, Type = 0xFFFFFFF2) -- CPU_ReadMem(4 bytes @ 0x20000000) -- CPU_WriteMem(4 bytes @ 0x20000000) -- CPU_ReadMem(4 bytes @ 0x20000000) -- CPU_WriteMem(4 bytes @ 0x20000000) -- CPU_ReadMem(2 bytes @ 0x20000000)  returns 0x00000008 (0003ms, 0660ms total)
T2E7C 001:006 JLINK_Go() -- CPU_WriteMem(2 bytes @ 0x20000000) -- CPU_ReadMem(4 bytes @ 0xE0001000) (0002ms, 0662ms total)
T2E7C 001:008 JLINK_IsHalted() -- CPU_ReadMem(2 bytes @ 0x20000000)  returns TRUE (0003ms, 0665ms total)
T2E7C 001:011 JLINK_ReadReg(R15 (PC))  returns 0x20000000 (0000ms, 0662ms total)
T2E7C 001:011 JLINK_ClrBPEx(BPHandle = 0x00000008)  returns 0x00 (0000ms, 0662ms total)
T2E7C 001:011 JLINK_ReadReg(R0)  returns 0x00000000 (0000ms, 0662ms total)
T2E7C 001:012 JLINK_WriteMem(0x20000180, 0x0400 Bytes, ...) - Data: 98 9F 00 20 A1 01 00 08 A9 01 00 08 AB 01 00 08 ... -- CPU_WriteMem(1024 bytes @ 0x20000180)  returns 0x400 (0005ms, 0667ms total)
T2E7C 001:017 JLINK_WriteReg(R0, 0x08000000)  returns 0x00 (0000ms, 0667ms total)
T2E7C 001:017 JLINK_WriteReg(R1, 0x00000400)  returns 0x00 (0000ms, 0667ms total)
T2E7C 001:017 JLINK_WriteReg(R2, 0x20000180)  returns 0x00 (0000ms, 0667ms total)
T2E7C 001:017 JLINK_WriteReg(R3, 0x00000000)  returns 0x00 (0000ms, 0667ms total)
T2E7C 001:017 JLINK_WriteReg(R4, 0x00000000)  returns 0x00 (0000ms, 0667ms total)
T2E7C 001:017 JLINK_WriteReg(R5, 0x00000000)  returns 0x00 (0000ms, 0667ms total)
T2E7C 001:017 JLINK_WriteReg(R6, 0x00000000)  returns 0x00 (0000ms, 0667ms total)
T2E7C 001:017 JLINK_WriteReg(R7, 0x00000000)  returns 0x00 (0000ms, 0667ms total)
T2E7C 001:017 JLINK_WriteReg(R8, 0x00000000)  returns 0x00 (0000ms, 0667ms total)
T2E7C 001:017 JLINK_WriteReg(R9, 0x2000017C)  returns 0x00 (0000ms, 0667ms total)
T2E7C 001:017 JLINK_WriteReg(R10, 0x00000000)  returns 0x00 (0000ms, 0667ms total)
T2E7C 001:017 JLINK_WriteReg(R11, 0x00000000)  returns 0x00 (0000ms, 0667ms total)
T2E7C 001:017 JLINK_WriteReg(R12, 0x00000000)  returns 0x00 (0000ms, 0667ms total)
T2E7C 001:017 JLINK_WriteReg(R13 (SP), 0x20001000)  returns 0x00 (0000ms, 0667ms total)
T2E7C 001:017 JLINK_WriteReg(R14, 0x20000001)  returns 0x00 (0000ms, 0667ms total)
T2E7C 001:017 JLINK_WriteReg(R15 (PC), 0x20000108)  returns 0x00 (0000ms, 0667ms total)
T2E7C 001:017 JLINK_WriteReg(XPSR, 0x01000000)  returns 0x00 (0000ms, 0667ms total)
T2E7C 001:017 JLINK_WriteReg(MSP, 0x20001000)  returns 0x00 (0000ms, 0667ms total)
T2E7C 001:017 JLINK_WriteReg(PSP, 0x20001000)  returns 0x00 (0000ms, 0667ms total)
T2E7C 001:017 JLINK_WriteReg(CFBP, 0x00000000)  returns 0x00 (0000ms, 0667ms total)
T2E7C 001:017 JLINK_SetBPEx(Addr = 0x20000000, Type = 0xFFFFFFF2)  returns 0x00000009 (0000ms, 0667ms total)
T2E7C 001:017 JLINK_Go() -- CPU_ReadMem(4 bytes @ 0xE0001000) (0003ms, 0670ms total)
T2E7C 001:020 JLINK_IsHalted()  returns FALSE (0000ms, 0670ms total)
T2E7C 001:060 JLINK_IsHalted() -- CPU_ReadMem(2 bytes @ 0x20000000)  returns TRUE (0002ms, 0672ms total)
T2E7C 001:062 JLINK_ReadReg(R15 (PC))  returns 0x20000000 (0000ms, 0670ms total)
T2E7C 001:062 JLINK_ClrBPEx(BPHandle = 0x00000009)  returns 0x00 (0000ms, 0670ms total)
T2E7C 001:062 JLINK_ReadReg(R0)  returns 0x00000000 (0000ms, 0670ms total)
T2E7C 001:062 JLINK_WriteMem(0x20000180, 0x0400 Bytes, ...) - Data: A4 03 00 20 70 B5 06 46 FF F7 E2 FF 06 F0 44 F8 ... -- CPU_WriteMem(1024 bytes @ 0x20000180)  returns 0x400 (0007ms, 0677ms total)
T2E7C 001:069 JLINK_WriteReg(R0, 0x08000400)  returns 0x00 (0000ms, 0677ms total)
T2E7C 001:069 JLINK_WriteReg(R1, 0x00000400)  returns 0x00 (0000ms, 0677ms total)
T2E7C 001:069 JLINK_WriteReg(R2, 0x20000180)  returns 0x00 (0000ms, 0677ms total)
T2E7C 001:069 JLINK_WriteReg(R3, 0x00000000)  returns 0x00 (0000ms, 0677ms total)
T2E7C 001:069 JLINK_WriteReg(R4, 0x00000000)  returns 0x00 (0000ms, 0677ms total)
T2E7C 001:069 JLINK_WriteReg(R5, 0x00000000)  returns 0x00 (0000ms, 0677ms total)
T2E7C 001:069 JLINK_WriteReg(R6, 0x00000000)  returns 0x00 (0000ms, 0677ms total)
T2E7C 001:069 JLINK_WriteReg(R7, 0x00000000)  returns 0x00 (0000ms, 0677ms total)
T2E7C 001:069 JLINK_WriteReg(R8, 0x00000000)  returns 0x00 (0000ms, 0677ms total)
T2E7C 001:069 JLINK_WriteReg(R9, 0x2000017C)  returns 0x00 (0000ms, 0677ms total)
T2E7C 001:069 JLINK_WriteReg(R10, 0x00000000)  returns 0x00 (0000ms, 0677ms total)
T2E7C 001:069 JLINK_WriteReg(R11, 0x00000000)  returns 0x00 (0000ms, 0677ms total)
T2E7C 001:069 JLINK_WriteReg(R12, 0x00000000)  returns 0x00 (0000ms, 0677ms total)
T2E7C 001:069 JLINK_WriteReg(R13 (SP), 0x20001000)  returns 0x00 (0000ms, 0677ms total)
T2E7C 001:069 JLINK_WriteReg(R14, 0x20000001)  returns 0x00 (0000ms, 0677ms total)
T2E7C 001:069 JLINK_WriteReg(R15 (PC), 0x20000108)  returns 0x00 (0000ms, 0677ms total)
T2E7C 001:069 JLINK_WriteReg(XPSR, 0x01000000)  returns 0x00 (0000ms, 0677ms total)
T2E7C 001:069 JLINK_WriteReg(MSP, 0x20001000)  returns 0x00 (0000ms, 0677ms total)
T2E7C 001:069 JLINK_WriteReg(PSP, 0x20001000)  returns 0x00 (0000ms, 0677ms total)
T2E7C 001:069 JLINK_WriteReg(CFBP, 0x00000000)  returns 0x00 (0000ms, 0677ms total)
T2E7C 001:069 JLINK_SetBPEx(Addr = 0x20000000, Type = 0xFFFFFFF2)  returns 0x0000000A (0000ms, 0677ms total)
T2E7C 001:069 JLINK_Go() -- CPU_ReadMem(4 bytes @ 0xE0001000) (0002ms, 0679ms total)
T2E7C 001:071 JLINK_IsHalted()  returns FALSE (0001ms, 0680ms total)
T2E7C 001:073 JLINK_IsHalted()  returns FALSE (0000ms, 0679ms total)
T2E7C 001:074 JLINK_IsHalted()  returns FALSE (0001ms, 0680ms total)
T2E7C 001:076 JLINK_IsHalted() -- CPU_ReadMem(2 bytes @ 0x20000000)  returns TRUE (0003ms, 0682ms total)
T2E7C 001:079 JLINK_ReadReg(R15 (PC))  returns 0x20000000 (0000ms, 0679ms total)
T2E7C 001:079 JLINK_ClrBPEx(BPHandle = 0x0000000A)  returns 0x00 (0000ms, 0679ms total)
T2E7C 001:079 JLINK_ReadReg(R0)  returns 0x00000000 (0000ms, 0679ms total)
T2E7C 001:079 JLINK_WriteMem(0x20000180, 0x0400 Bytes, ...) - Data: 02 46 0B 46 DA E9 24 01 05 F0 02 FC DD E9 00 23 ... -- CPU_WriteMem(1024 bytes @ 0x20000180)  returns 0x400 (0006ms, 0685ms total)
T2E7C 001:085 JLINK_WriteReg(R0, 0x08000800)  returns 0x00 (0000ms, 0685ms total)
T2E7C 001:085 JLINK_WriteReg(R1, 0x00000400)  returns 0x00 (0000ms, 0685ms total)
T2E7C 001:085 JLINK_WriteReg(R2, 0x20000180)  returns 0x00 (0000ms, 0685ms total)
T2E7C 001:085 JLINK_WriteReg(R3, 0x00000000)  returns 0x00 (0000ms, 0685ms total)
T2E7C 001:085 JLINK_WriteReg(R4, 0x00000000)  returns 0x00 (0000ms, 0685ms total)
T2E7C 001:085 JLINK_WriteReg(R5, 0x00000000)  returns 0x00 (0000ms, 0685ms total)
T2E7C 001:085 JLINK_WriteReg(R6, 0x00000000)  returns 0x00 (0000ms, 0685ms total)
T2E7C 001:085 JLINK_WriteReg(R7, 0x00000000)  returns 0x00 (0000ms, 0685ms total)
T2E7C 001:085 JLINK_WriteReg(R8, 0x00000000)  returns 0x00 (0000ms, 0685ms total)
T2E7C 001:085 JLINK_WriteReg(R9, 0x2000017C)  returns 0x00 (0000ms, 0685ms total)
T2E7C 001:085 JLINK_WriteReg(R10, 0x00000000)  returns 0x00 (0000ms, 0685ms total)
T2E7C 001:085 JLINK_WriteReg(R11, 0x00000000)  returns 0x00 (0000ms, 0685ms total)
T2E7C 001:085 JLINK_WriteReg(R12, 0x00000000)  returns 0x00 (0000ms, 0685ms total)
T2E7C 001:085 JLINK_WriteReg(R13 (SP), 0x20001000)  returns 0x00 (0000ms, 0685ms total)
T2E7C 001:085 JLINK_WriteReg(R14, 0x20000001)  returns 0x00 (0000ms, 0685ms total)
T2E7C 001:085 JLINK_WriteReg(R15 (PC), 0x20000108)  returns 0x00 (0000ms, 0685ms total)
T2E7C 001:085 JLINK_WriteReg(XPSR, 0x01000000)  returns 0x00 (0000ms, 0685ms total)
T2E7C 001:085 JLINK_WriteReg(MSP, 0x20001000)  returns 0x00 (0000ms, 0685ms total)
T2E7C 001:085 JLINK_WriteReg(PSP, 0x20001000)  returns 0x00 (0000ms, 0685ms total)
T2E7C 001:085 JLINK_WriteReg(CFBP, 0x00000000)  returns 0x00 (0000ms, 0685ms total)
T2E7C 001:085 JLINK_SetBPEx(Addr = 0x20000000, Type = 0xFFFFFFF2)  returns 0x0000000B (0000ms, 0685ms total)
T2E7C 001:085 JLINK_Go() -- CPU_ReadMem(4 bytes @ 0xE0001000) (0002ms, 0687ms total)
T2E7C 001:087 JLINK_IsHalted()  returns FALSE (0001ms, 0688ms total)
T2E7C 001:092 JLINK_IsHalted() -- CPU_ReadMem(2 bytes @ 0x20000000)  returns TRUE (0003ms, 0690ms total)
T2E7C 001:095 JLINK_ReadReg(R15 (PC))  returns 0x20000000 (0000ms, 0687ms total)
T2E7C 001:095 JLINK_ClrBPEx(BPHandle = 0x0000000B)  returns 0x00 (0000ms, 0687ms total)
T2E7C 001:095 JLINK_ReadReg(R0)  returns 0x00000000 (0000ms, 0687ms total)
T2E7C 001:095 JLINK_WriteMem(0x20000180, 0x0400 Bytes, ...) - Data: 05 F0 A7 FA DD E9 26 23 04 46 0D 46 40 46 49 46 ... -- CPU_WriteMem(1024 bytes @ 0x20000180)  returns 0x400 (0006ms, 0693ms total)
T2E7C 001:101 JLINK_WriteReg(R0, 0x08000C00)  returns 0x00 (0000ms, 0693ms total)
T2E7C 001:101 JLINK_WriteReg(R1, 0x00000400)  returns 0x00 (0000ms, 0693ms total)
T2E7C 001:101 JLINK_WriteReg(R2, 0x20000180)  returns 0x00 (0000ms, 0693ms total)
T2E7C 001:101 JLINK_WriteReg(R3, 0x00000000)  returns 0x00 (0000ms, 0693ms total)
T2E7C 001:101 JLINK_WriteReg(R4, 0x00000000)  returns 0x00 (0000ms, 0693ms total)
T2E7C 001:101 JLINK_WriteReg(R5, 0x00000000)  returns 0x00 (0000ms, 0693ms total)
T2E7C 001:101 JLINK_WriteReg(R6, 0x00000000)  returns 0x00 (0000ms, 0693ms total)
T2E7C 001:101 JLINK_WriteReg(R7, 0x00000000)  returns 0x00 (0000ms, 0693ms total)
T2E7C 001:101 JLINK_WriteReg(R8, 0x00000000)  returns 0x00 (0000ms, 0693ms total)
T2E7C 001:101 JLINK_WriteReg(R9, 0x2000017C)  returns 0x00 (0000ms, 0693ms total)
T2E7C 001:101 JLINK_WriteReg(R10, 0x00000000)  returns 0x00 (0000ms, 0693ms total)
T2E7C 001:101 JLINK_WriteReg(R11, 0x00000000)  returns 0x00 (0000ms, 0693ms total)
T2E7C 001:101 JLINK_WriteReg(R12, 0x00000000)  returns 0x00 (0000ms, 0693ms total)
T2E7C 001:101 JLINK_WriteReg(R13 (SP), 0x20001000)  returns 0x00 (0000ms, 0693ms total)
T2E7C 001:101 JLINK_WriteReg(R14, 0x20000001)  returns 0x00 (0000ms, 0693ms total)
T2E7C 001:101 JLINK_WriteReg(R15 (PC), 0x20000108)  returns 0x00 (0000ms, 0693ms total)
T2E7C 001:101 JLINK_WriteReg(XPSR, 0x01000000)  returns 0x00 (0000ms, 0693ms total)
T2E7C 001:101 JLINK_WriteReg(MSP, 0x20001000)  returns 0x00 (0000ms, 0693ms total)
T2E7C 001:101 JLINK_WriteReg(PSP, 0x20001000)  returns 0x00 (0000ms, 0693ms total)
T2E7C 001:101 JLINK_WriteReg(CFBP, 0x00000000)  returns 0x00 (0000ms, 0693ms total)
T2E7C 001:101 JLINK_SetBPEx(Addr = 0x20000000, Type = 0xFFFFFFF2)  returns 0x0000000C (0000ms, 0693ms total)
T2E7C 001:101 JLINK_Go() -- CPU_ReadMem(4 bytes @ 0xE0001000) (0002ms, 0695ms total)
T2E7C 001:103 JLINK_IsHalted()  returns FALSE (0000ms, 0695ms total)
T2E7C 001:105 JLINK_IsHalted()  returns FALSE (0000ms, 0695ms total)
T2E7C 001:106 JLINK_IsHalted()  returns FALSE (0001ms, 0696ms total)
T2E7C 001:108 JLINK_IsHalted() -- CPU_ReadMem(2 bytes @ 0x20000000)  returns TRUE (0003ms, 0698ms total)
T2E7C 001:111 JLINK_ReadReg(R15 (PC))  returns 0x20000000 (0000ms, 0695ms total)
T2E7C 001:111 JLINK_ClrBPEx(BPHandle = 0x0000000C)  returns 0x00 (0000ms, 0695ms total)
T2E7C 001:111 JLINK_ReadReg(R0)  returns 0x00000000 (0000ms, 0695ms total)
T2E7C 001:112 JLINK_WriteMem(0x20000180, 0x0400 Bytes, ...) - Data: 40 46 49 46 05 F0 04 F8 D6 E9 10 23 80 46 89 46 ... -- CPU_WriteMem(1024 bytes @ 0x20000180)  returns 0x400 (0005ms, 0700ms total)
T2E7C 001:117 JLINK_WriteReg(R0, 0x08001000)  returns 0x00 (0000ms, 0700ms total)
T2E7C 001:117 JLINK_WriteReg(R1, 0x00000400)  returns 0x00 (0000ms, 0700ms total)
T2E7C 001:117 JLINK_WriteReg(R2, 0x20000180)  returns 0x00 (0000ms, 0700ms total)
T2E7C 001:117 JLINK_WriteReg(R3, 0x00000000)  returns 0x00 (0000ms, 0700ms total)
T2E7C 001:117 JLINK_WriteReg(R4, 0x00000000)  returns 0x00 (0000ms, 0700ms total)
T2E7C 001:117 JLINK_WriteReg(R5, 0x00000000)  returns 0x00 (0000ms, 0700ms total)
T2E7C 001:117 JLINK_WriteReg(R6, 0x00000000)  returns 0x00 (0000ms, 0700ms total)
T2E7C 001:117 JLINK_WriteReg(R7, 0x00000000)  returns 0x00 (0000ms, 0700ms total)
T2E7C 001:117 JLINK_WriteReg(R8, 0x00000000)  returns 0x00 (0000ms, 0700ms total)
T2E7C 001:117 JLINK_WriteReg(R9, 0x2000017C)  returns 0x00 (0000ms, 0700ms total)
T2E7C 001:117 JLINK_WriteReg(R10, 0x00000000)  returns 0x00 (0000ms, 0700ms total)
T2E7C 001:117 JLINK_WriteReg(R11, 0x00000000)  returns 0x00 (0000ms, 0700ms total)
T2E7C 001:117 JLINK_WriteReg(R12, 0x00000000)  returns 0x00 (0000ms, 0700ms total)
T2E7C 001:117 JLINK_WriteReg(R13 (SP), 0x20001000)  returns 0x00 (0000ms, 0700ms total)
T2E7C 001:117 JLINK_WriteReg(R14, 0x20000001)  returns 0x00 (0000ms, 0700ms total)
T2E7C 001:117 JLINK_WriteReg(R15 (PC), 0x20000108)  returns 0x00 (0000ms, 0700ms total)
T2E7C 001:117 JLINK_WriteReg(XPSR, 0x01000000)  returns 0x00 (0000ms, 0700ms total)
T2E7C 001:117 JLINK_WriteReg(MSP, 0x20001000)  returns 0x00 (0000ms, 0700ms total)
T2E7C 001:117 JLINK_WriteReg(PSP, 0x20001000)  returns 0x00 (0000ms, 0700ms total)
T2E7C 001:117 JLINK_WriteReg(CFBP, 0x00000000)  returns 0x00 (0000ms, 0700ms total)
T2E7C 001:117 JLINK_SetBPEx(Addr = 0x20000000, Type = 0xFFFFFFF2)  returns 0x0000000D (0000ms, 0700ms total)
T2E7C 001:117 JLINK_Go() -- CPU_ReadMem(4 bytes @ 0xE0001000) (0003ms, 0703ms total)
T2E7C 001:120 JLINK_IsHalted()  returns FALSE (0000ms, 0703ms total)
T2E7C 001:155 JLINK_IsHalted() -- CPU_ReadMem(2 bytes @ 0x20000000)  returns TRUE (0003ms, 0706ms total)
T2E7C 001:158 JLINK_ReadReg(R15 (PC))  returns 0x20000000 (0000ms, 0703ms total)
T2E7C 001:158 JLINK_ClrBPEx(BPHandle = 0x0000000D)  returns 0x00 (0000ms, 0703ms total)
T2E7C 001:158 JLINK_ReadReg(R0)  returns 0x00000000 (0000ms, 0703ms total)
T2E7C 001:159 JLINK_WriteMem(0x20000180, 0x0400 Bytes, ...) - Data: 0A 23 80 46 89 46 DD E9 02 01 04 F0 A8 FE 02 46 ... -- CPU_WriteMem(1024 bytes @ 0x20000180)  returns 0x400 (0006ms, 0709ms total)
T2E7C 001:165 JLINK_WriteReg(R0, 0x08001400)  returns 0x00 (0000ms, 0709ms total)
T2E7C 001:165 JLINK_WriteReg(R1, 0x00000400)  returns 0x00 (0000ms, 0709ms total)
T2E7C 001:165 JLINK_WriteReg(R2, 0x20000180)  returns 0x00 (0000ms, 0709ms total)
T2E7C 001:165 JLINK_WriteReg(R3, 0x00000000)  returns 0x00 (0000ms, 0709ms total)
T2E7C 001:165 JLINK_WriteReg(R4, 0x00000000)  returns 0x00 (0000ms, 0709ms total)
T2E7C 001:165 JLINK_WriteReg(R5, 0x00000000)  returns 0x00 (0000ms, 0709ms total)
T2E7C 001:165 JLINK_WriteReg(R6, 0x00000000)  returns 0x00 (0000ms, 0709ms total)
T2E7C 001:165 JLINK_WriteReg(R7, 0x00000000)  returns 0x00 (0000ms, 0709ms total)
T2E7C 001:165 JLINK_WriteReg(R8, 0x00000000)  returns 0x00 (0000ms, 0709ms total)
T2E7C 001:165 JLINK_WriteReg(R9, 0x2000017C)  returns 0x00 (0000ms, 0709ms total)
T2E7C 001:165 JLINK_WriteReg(R10, 0x00000000)  returns 0x00 (0000ms, 0709ms total)
T2E7C 001:165 JLINK_WriteReg(R11, 0x00000000)  returns 0x00 (0000ms, 0709ms total)
T2E7C 001:165 JLINK_WriteReg(R12, 0x00000000)  returns 0x00 (0000ms, 0709ms total)
T2E7C 001:165 JLINK_WriteReg(R13 (SP), 0x20001000)  returns 0x00 (0000ms, 0709ms total)
T2E7C 001:165 JLINK_WriteReg(R14, 0x20000001)  returns 0x00 (0000ms, 0709ms total)
T2E7C 001:165 JLINK_WriteReg(R15 (PC), 0x20000108)  returns 0x00 (0000ms, 0709ms total)
T2E7C 001:165 JLINK_WriteReg(XPSR, 0x01000000)  returns 0x00 (0000ms, 0709ms total)
T2E7C 001:165 JLINK_WriteReg(MSP, 0x20001000)  returns 0x00 (0000ms, 0709ms total)
T2E7C 001:165 JLINK_WriteReg(PSP, 0x20001000)  returns 0x00 (0000ms, 0709ms total)
T2E7C 001:165 JLINK_WriteReg(CFBP, 0x00000000)  returns 0x00 (0000ms, 0709ms total)
T2E7C 001:165 JLINK_SetBPEx(Addr = 0x20000000, Type = 0xFFFFFFF2)  returns 0x0000000E (0000ms, 0709ms total)
T2E7C 001:165 JLINK_Go() -- CPU_ReadMem(4 bytes @ 0xE0001000) (0002ms, 0711ms total)
T2E7C 001:167 JLINK_IsHalted()  returns FALSE (0001ms, 0712ms total)
T2E7C 001:169 JLINK_IsHalted()  returns FALSE (0000ms, 0711ms total)
T2E7C 001:171 JLINK_IsHalted()  returns FALSE (0000ms, 0711ms total)
T2E7C 001:173 JLINK_IsHalted() -- CPU_ReadMem(2 bytes @ 0x20000000)  returns TRUE (0003ms, 0714ms total)
T2E7C 001:176 JLINK_ReadReg(R15 (PC))  returns 0x20000000 (0000ms, 0711ms total)
T2E7C 001:176 JLINK_ClrBPEx(BPHandle = 0x0000000E)  returns 0x00 (0000ms, 0711ms total)
T2E7C 001:176 JLINK_ReadReg(R0)  returns 0x00000000 (0000ms, 0711ms total)
T2E7C 001:177 JLINK_WriteMem(0x20000180, 0x0400 Bytes, ...) - Data: 08 00 04 F0 3D FB 46 F8 08 00 08 F1 04 08 B8 F1 ... -- CPU_WriteMem(1024 bytes @ 0x20000180)  returns 0x400 (0005ms, 0716ms total)
T2E7C 001:182 JLINK_WriteReg(R0, 0x08001800)  returns 0x00 (0000ms, 0716ms total)
T2E7C 001:182 JLINK_WriteReg(R1, 0x00000400)  returns 0x00 (0000ms, 0716ms total)
T2E7C 001:182 JLINK_WriteReg(R2, 0x20000180)  returns 0x00 (0000ms, 0716ms total)
T2E7C 001:182 JLINK_WriteReg(R3, 0x00000000)  returns 0x00 (0000ms, 0716ms total)
T2E7C 001:182 JLINK_WriteReg(R4, 0x00000000)  returns 0x00 (0000ms, 0716ms total)
T2E7C 001:182 JLINK_WriteReg(R5, 0x00000000)  returns 0x00 (0000ms, 0716ms total)
T2E7C 001:182 JLINK_WriteReg(R6, 0x00000000)  returns 0x00 (0000ms, 0716ms total)
T2E7C 001:182 JLINK_WriteReg(R7, 0x00000000)  returns 0x00 (0000ms, 0716ms total)
T2E7C 001:182 JLINK_WriteReg(R8, 0x00000000)  returns 0x00 (0000ms, 0716ms total)
T2E7C 001:182 JLINK_WriteReg(R9, 0x2000017C)  returns 0x00 (0000ms, 0716ms total)
T2E7C 001:182 JLINK_WriteReg(R10, 0x00000000)  returns 0x00 (0000ms, 0716ms total)
T2E7C 001:182 JLINK_WriteReg(R11, 0x00000000)  returns 0x00 (0000ms, 0716ms total)
T2E7C 001:182 JLINK_WriteReg(R12, 0x00000000)  returns 0x00 (0000ms, 0716ms total)
T2E7C 001:182 JLINK_WriteReg(R13 (SP), 0x20001000)  returns 0x00 (0000ms, 0716ms total)
T2E7C 001:182 JLINK_WriteReg(R14, 0x20000001)  returns 0x00 (0000ms, 0716ms total)
T2E7C 001:182 JLINK_WriteReg(R15 (PC), 0x20000108)  returns 0x00 (0000ms, 0716ms total)
T2E7C 001:182 JLINK_WriteReg(XPSR, 0x01000000)  returns 0x00 (0000ms, 0716ms total)
T2E7C 001:182 JLINK_WriteReg(MSP, 0x20001000)  returns 0x00 (0000ms, 0716ms total)
T2E7C 001:182 JLINK_WriteReg(PSP, 0x20001000)  returns 0x00 (0000ms, 0716ms total)
T2E7C 001:182 JLINK_WriteReg(CFBP, 0x00000000)  returns 0x00 (0000ms, 0716ms total)
T2E7C 001:182 JLINK_SetBPEx(Addr = 0x20000000, Type = 0xFFFFFFF2)  returns 0x0000000F (0000ms, 0716ms total)
T2E7C 001:182 JLINK_Go() -- CPU_ReadMem(4 bytes @ 0xE0001000) (0002ms, 0718ms total)
T2E7C 001:184 JLINK_IsHalted()  returns FALSE (0001ms, 0719ms total)
T2E7C 001:186 JLINK_IsHalted()  returns FALSE (0001ms, 0719ms total)
T2E7C 001:188 JLINK_IsHalted()  returns FALSE (0001ms, 0719ms total)
T2E7C 001:190 JLINK_IsHalted() -- CPU_ReadMem(2 bytes @ 0x20000000)  returns TRUE (0002ms, 0720ms total)
T2E7C 001:192 JLINK_ReadReg(R15 (PC))  returns 0x20000000 (0000ms, 0718ms total)
T2E7C 001:192 JLINK_ClrBPEx(BPHandle = 0x0000000F)  returns 0x00 (0000ms, 0718ms total)
T2E7C 001:192 JLINK_ReadReg(R0)  returns 0x00000000 (0000ms, 0718ms total)
T2E7C 001:192 JLINK_WriteMem(0x20000180, 0x0400 Bytes, ...) - Data: DE D1 DD E9 1A 23 DD E9 20 01 04 F0 A2 FA DD E9 ... -- CPU_WriteMem(1024 bytes @ 0x20000180)  returns 0x400 (0006ms, 0724ms total)
T2E7C 001:198 JLINK_WriteReg(R0, 0x08001C00)  returns 0x00 (0000ms, 0724ms total)
T2E7C 001:198 JLINK_WriteReg(R1, 0x00000400)  returns 0x00 (0000ms, 0724ms total)
T2E7C 001:198 JLINK_WriteReg(R2, 0x20000180)  returns 0x00 (0000ms, 0724ms total)
T2E7C 001:198 JLINK_WriteReg(R3, 0x00000000)  returns 0x00 (0000ms, 0724ms total)
T2E7C 001:198 JLINK_WriteReg(R4, 0x00000000)  returns 0x00 (0000ms, 0724ms total)
T2E7C 001:198 JLINK_WriteReg(R5, 0x00000000)  returns 0x00 (0000ms, 0724ms total)
T2E7C 001:198 JLINK_WriteReg(R6, 0x00000000)  returns 0x00 (0000ms, 0724ms total)
T2E7C 001:198 JLINK_WriteReg(R7, 0x00000000)  returns 0x00 (0000ms, 0724ms total)
T2E7C 001:198 JLINK_WriteReg(R8, 0x00000000)  returns 0x00 (0000ms, 0724ms total)
T2E7C 001:198 JLINK_WriteReg(R9, 0x2000017C)  returns 0x00 (0000ms, 0724ms total)
T2E7C 001:199 JLINK_WriteReg(R10, 0x00000000)  returns 0x00 (0000ms, 0725ms total)
T2E7C 001:199 JLINK_WriteReg(R11, 0x00000000)  returns 0x00 (0000ms, 0725ms total)
T2E7C 001:199 JLINK_WriteReg(R12, 0x00000000)  returns 0x00 (0000ms, 0725ms total)
T2E7C 001:199 JLINK_WriteReg(R13 (SP), 0x20001000)  returns 0x00 (0000ms, 0725ms total)
